T02BC 793:190 SEGGER J-Link V4.96d Log File (0001ms, 15869ms total)
T02BC 793:190 DLL Compiled: Jan 29 2015 11:45:37 (0001ms, 15869ms total)
T02BC 793:190 Logging started @ 2019-09-30 11:00 (0001ms, 15869ms total)
T02BC 793:191 JLINK_SetWarnOutHandler(...) (0001ms, 15870ms total)
T02BC 793:192 JLINK_OpenEx(...)
Firmware: J-Link OB-STM32F072-CortexM compiled Jan  7 2019 14:09:37
Hardware: V1.00
Feature(s): GDB, RDI, FlashBP, FlashDL, JFlash, RDDI  returns O.K. (0319ms, 16189ms total)
T02BC 793:511 JLINK_GetEmuCaps()  returns 0xB8EA5A33 (0000ms, 16189ms total)
T02BC 793:526 JLINK_TIF_GetAvailable(...) (0003ms, 16193ms total)
T02BC 793:530 JLINK_SetErrorOutHandler(...) (0000ms, 16194ms total)
T02BC 793:530 JLINK_ExecCommand("ProjectFile = "Y:\SoftWork\MyStm32\ing\STM32F407ZGPro\STMF407ZGT6\STMF407ZGT6\STM32F407ZGPro\MDK-ARM\JLinkSettings.ini"", ...)  returns 0x00 (0003ms, 16197ms total)
T02BC 793:533 JLINK_ExecCommand("Device = STM32F407ZG", ...)Device "STM32F407ZG" selected.  returns 0x00 (0001ms, 16199ms total)
T02BC 793:535 JLINK_ExecCommand("DisableConnectionTimeout", ...)  returns 0x01 (0000ms, 16200ms total)
T02BC 793:536 JLINK_GetHardwareVersion()  returns 0x2710 (0000ms, 16200ms total)
T02BC 793:536 JLINK_GetDLLVersion()  returns 49604 (0000ms, 16200ms total)
T02BC 793:537 JLINK_GetFirmwareString(...) (0000ms, 16201ms total)
T02BC 793:537 JLINK_GetDLLVersion()  returns 49604 (0000ms, 16201ms total)
T02BC 793:537 JLINK_GetCompileDateTime() (0000ms, 16201ms total)
T02BC 793:537 JLINK_GetFirmwareString(...) (0000ms, 16201ms total)
T02BC 793:537 JLINK_GetHardwareVersion()  returns 0x2710 (0001ms, 16202ms total)
T02BC 793:538 JLINK_TIF_Select(JLINKARM_TIF_SWD)  returns 0x00 (0015ms, 16217ms total)
T02BC 793:554 JLINK_SetSpeed(5000) (0003ms, 16221ms total)
T02BC 793:557 JLINK_GetId() >0x108 TIF>Found SWD-DP with ID 0x2BA01477 >0x0D TIF> >0x28 TIF> >0x0D TIF> >0x28 TIF> >0x0D TIF> >0x21 TIF> >0x0D TIF> >0x28 TIF> >0x0D TIF> >0x28 TIF> >0x0D TIF> >0x28 TIF> >0x0D TIF> >0x21 TIF> >0x0D TIF> >0x21 TIF> >0x0D TIF> >0x28 TIF> >0x0D TIF> >0x21 TIF> >0x0D TIF> >0x21 TIF> >0x0D TIF> >0x28 TIF> >0x0D TIF> >0x21 TIF> >0x0D TIF> >0x21 TIF> >0x108 TIF>Found SWD-DP with ID 0x2BA01477 >0x0D TIF> >0x21 TIF> >0x0D TIF> >0x28 TIF> >0x0D TIF> >0x28 TIF> >0x0D TIF> >0x21 TIF>
 >0x0D TIF> >0x28 TIF> >0x0D TIF> >0x21 TIF> >0x0D TIF> >0x21 TIF> >0x0D TIF> >0x21 TIF> >0x0D TIF> >0x21 TIF> >0x0D TIF> >0x28 TIF> >0x0D TIF> >0x28 TIF> >0x0D TIF> >0x21 TIF> >0x0D TIF> >0x28 TIF> >0x0D TIF> >0x28 TIF> >0x0D TIF> >0x28 TIF> >0x0D TIF> >0x21 TIF> >0x0D TIF> >0x21 TIF> >0x0D TIF> >0x28 TIF> >0x0D TIF> >0x21 TIF> >0x0D TIF> >0x21 TIF>Found Cortex-M4 r0p1, Little endian. -- CPU_WriteMem(4 bytes @ 0xE0002000) -- CPU_ReadMem(4 bytes @ 0xE000EDF0) -- CPU_ReadMem(4 bytes @ 0xE0002000)
FPUnit: 6 code (BP) slots and 2 literal slots -- CPU_ReadMem(4 bytes @ 0xE000EDFC) -- CPU_ReadMem(4 bytes @ 0xE0001000) -- CPU_WriteMem(4 bytes @ 0xE0001000) -- CPU_ReadMem(4 bytes @ 0xE000ED88) -- CPU_WriteMem(4 bytes @ 0xE000ED88) -- CPU_ReadMem(4 bytes @ 0xE000ED88) -- CPU_WriteMem(4 bytes @ 0xE000ED88) -- CPU_ReadMem(4 bytes @ 0xE00FF010)TPIU fitted. -- CPU_ReadMem(4 bytes @ 0xE00FF014)ETM fitted. -- CPU_ReadMem(4 bytes @ 0xE00FF018) >0x0D TIF> >0x21 TIF>  returns 0x2BA01477 (0336ms, 16557ms total)
T02BC 793:893 JLINK_GetDLLVersion()  returns 49604 (0001ms, 16558ms total)
T02BC 793:895 JLINK_CORE_GetFound()  returns 0xE0000FF (0004ms, 16562ms total)
T02BC 793:899 JLINK_GetDebugInfo(0x100) -- Value=0xE00FF003  returns 0x00 (0002ms, 16564ms total)
T02BC 793:901 JLINK_GetDebugInfo(0x100) -- Value=0xE00FF003  returns 0x00 (0002ms, 16566ms total)
T02BC 793:903 JLINK_GetDebugInfo(0x101)  returns 0xFFFFFFFF (0001ms, 16567ms total)
T02BC 793:904 JLINK_ReadMemEx(0xE0041FF0, 0x0010 Bytes, ..., AccessWidth = 33554436) -- CPU is running -- CPU_ReadMem(16 bytes @ 0xE0041FF0) - Data: 0D 00 00 00 90 00 00 00 05 00 00 00 B1 00 00 00  returns 0x10 (0004ms, 16571ms total)
T02BC 793:909 JLINK_ReadMemEx(0xE0041FD0, 0x0020 Bytes, ..., AccessWidth = 33554436) -- CPU is running -- CPU_ReadMem(32 bytes @ 0xE0041FD0) - Data: 04 00 00 00 00 00 00 00 00 00 00 00 00 00 00 00 ...  returns 0x20 (0005ms, 16577ms total)
T02BC 793:915 JLINK_GetDebugInfo(0x102)  returns 0xFFFFFFFF (0001ms, 16579ms total)
T02BC 793:916 JLINK_GetDebugInfo(0x103)  returns 0xFFFFFFFF (0002ms, 16581ms total)
T02BC 793:918 JLINK_ReadMemEx(0xE0040FF0, 0x0010 Bytes, ..., AccessWidth = 33554436) -- CPU is running -- CPU_ReadMem(16 bytes @ 0xE0040FF0) - Data: 0D 00 00 00 90 00 00 00 05 00 00 00 B1 00 00 00  returns 0x10 (0006ms, 16587ms total)
T02BC 793:924 JLINK_GetDebugInfo(0x104)  returns 0xFFFFFFFF (0001ms, 16588ms total)
T02BC 793:926 JLINK_GetDebugInfo(0x105)  returns 0xFFFFFFFF (0001ms, 16590ms total)
T02BC 793:927 JLINK_GetDebugInfo(0x106)  returns 0xFFFFFFFF (0001ms, 16591ms total)
T02BC 793:928 JLINK_GetDebugInfo(0x107)  returns 0xFFFFFFFF (0002ms, 16593ms total)
T02BC 793:930 JLINK_GetDebugInfo(0x10C)  returns 0xFFFFFFFF (0001ms, 16594ms total)
T02BC 793:931 JLINK_GetDebugInfo(0x01)  returns 0xFFFFFFFF (0001ms, 16595ms total)
T02BC 793:932 JLINK_GetDeviceFamily()  returns 14 (0002ms, 16597ms total)
T02BC 793:934 JLINK_ReadMemU32(0xE000ED00, 0x0001 Items, ...) -- CPU is running -- CPU_ReadMem(4 bytes @ 0xE000ED00) - Data: 41 C2 0F 41  returns 0x01 (0004ms, 16601ms total)
T02BC 793:939 JLINK_GetDebugInfo(0x10F)  returns 0xFFFFFFFF (0001ms, 16603ms total)
T02BC 793:941 JLINK_SetResetType(JLINKARM_RESET_TYPE_NORMAL)  returns JLINKARM_RESET_TYPE_NORMAL (0001ms, 16605ms total)
T02BC 793:942 JLINK_Reset() -- CPU is running -- CPU_WriteMem(4 bytes @ 0xE000EDF0) -- CPU is running -- CPU_WriteMem(4 bytes @ 0xE000EDFC) >0x35 TIF> -- CPU is running -- CPU_WriteMem(4 bytes @ 0xE000ED0C) -- CPU is running -- CPU_ReadMem(4 bytes @ 0xE000EDF0) -- CPU is running -- CPU_ReadMem(4 bytes @ 0xE000EDF0) -- CPU is running -- CPU_WriteMem(4 bytes @ 0xE000EDF0) -- CPU is running -- CPU_WriteMem(4 bytes @ 0xE000EDFC) -- CPU is running -- CPU_ReadMem(4 bytes @ 0xE000EDF0)
 -- CPU_WriteMem(4 bytes @ 0xE0002000) -- CPU_ReadMem(4 bytes @ 0xE000EDFC) -- CPU_ReadMem(4 bytes @ 0xE0001000) (0058ms, 16663ms total)
T02BC 794:001 JLINK_ReadReg(R15 (PC))  returns 0x0800025C (0001ms, 16665ms total)
T02BC 794:002 JLINK_ReadReg(XPSR)  returns 0x01000000 (0000ms, 16665ms total)
T02BC 794:003 JLINK_Halt()  returns 0x00 (0000ms, 16666ms total)
T02BC 794:003 JLINK_ReadMemU32(0xE000EDF0, 0x0001 Items, ...) -- CPU_ReadMem(4 bytes @ 0xE000EDF0) - Data: 03 00 03 00  returns 0x01 (0003ms, 16669ms total)
T02BC 794:006 JLINK_WriteU32(0xE000EDF0, 0xA05F0003) -- CPU_WriteMem(4 bytes @ 0xE000EDF0)  returns 0x00 (0002ms, 16671ms total)
T02BC 794:009 JLINK_WriteU32(0xE000EDFC, 0x01000000) -- CPU_WriteMem(4 bytes @ 0xE000EDFC)  returns 0x00 (0003ms, 16675ms total)
T02BC 794:012 JLINK_GetHWStatus(...)  returns 0x00 (0004ms, 16679ms total)
T02BC 794:016 JLINK_GetNumBPUnits(Type = 0xFFFFFF00)  returns 0x06 (0000ms, 16679ms total)
T02BC 794:016 JLINK_GetNumBPUnits(Type = 0xF0)  returns 0x2000 (0001ms, 16680ms total)
T02BC 794:017 JLINK_GetNumWPUnits()  returns 0x04 (0001ms, 16681ms total)
T02BC 794:018 JLINK_GetSpeed()  returns 0x7D0 (0000ms, 16681ms total)
T02BC 794:018 JLINK_ReadMemU32(0xE000E004, 0x0001 Items, ...) -- CPU_ReadMem(4 bytes @ 0xE000E004) - Data: 02 00 00 00  returns 0x01 (0004ms, 16685ms total)
T02BC 794:022 JLINK_ReadMemU32(0xE000E004, 0x0001 Items, ...) -- CPU_ReadMem(4 bytes @ 0xE000E004) - Data: 02 00 00 00  returns 0x01 (0003ms, 16688ms total)
T02BC 794:025 JLINK_WriteMemEx(0xE0001000, 0x001C Bytes, ..., AccessWidth = 33554436) - Data: 01 00 00 00 00 00 00 00 00 00 00 00 00 00 00 00 ... -- CPU_WriteMem(28 bytes @ 0xE0001000)  returns 0x1C (0003ms, 16691ms total)
T02BC 794:028 JLINK_ReadReg(R15 (PC))  returns 0x0800025C (0000ms, 16691ms total)
T02BC 794:028 JLINK_ReadReg(XPSR)  returns 0x01000000 (0000ms, 16691ms total)
T02BC 794:031 JLINK_ReadMemEx(0xE0001004, 0x0004 Bytes, ..., AccessWidth = 33554432)Mis-aligned memory read: Address: 0xE0001004, NumBytes: 4, Alignment: 2 (Halfword-aligned)
  ***** Mis-aligned memory read: Address: 0xE0001004, NumBytes: 4, Alignment: 2 (Halfword-aligned) -- CPU_ReadMem(4 bytes @ 0xE0001004) - Data: 00 00 00 00  returns 0x04 (0003ms, 16694ms total)
T02BC 794:151 JLINK_SetResetType(JLINKARM_RESET_TYPE_NORMAL)  returns JLINKARM_RESET_TYPE_NORMAL (0001ms, 16695ms total)
T02BC 794:152 JLINK_Reset() -- CPU_WriteMem(4 bytes @ 0xE000EDF0) -- CPU_WriteMem(4 bytes @ 0xE000EDFC) >0x35 TIF> -- CPU_WriteMem(4 bytes @ 0xE000ED0C) -- CPU_ReadMem(4 bytes @ 0xE000EDF0) -- CPU_ReadMem(4 bytes @ 0xE000EDF0) -- CPU_WriteMem(4 bytes @ 0xE000EDF0) -- CPU_WriteMem(4 bytes @ 0xE000EDFC) -- CPU is running -- CPU_ReadMem(4 bytes @ 0xE000EDF0) -- CPU_WriteMem(4 bytes @ 0xE0002000) -- CPU_ReadMem(4 bytes @ 0xE000EDFC) -- CPU_ReadMem(4 bytes @ 0xE0001000) (0077ms, 16772ms total)
T02BC 794:229 JLINK_ReadReg(R15 (PC))  returns 0x0800025C (0002ms, 16774ms total)
T02BC 794:231 JLINK_ReadReg(XPSR)  returns 0x01000000 (0001ms, 16775ms total)
T02BC 794:237 JLINK_ReadMemEx(0x0800025C, 0x003C Bytes, ..., AccessWidth = 33554432)Mis-aligned memory read: Address: 0x0800025C, NumBytes: 60, Alignment: 2 (Halfword-aligned)
  ***** Mis-aligned memory read: Address: 0x0800025C, NumBytes: 60, Alignment: 2 (Halfword-aligned) -- CPU_ReadMem(128 bytes @ 0x08000240) -- Updating C cache (128 bytes @ 0x08000240) -- Read from C cache (60 bytes @ 0x0800025C) - Data: 06 48 80 47 06 48 00 47 FE E7 FE E7 FE E7 FE E7 ...  returns 0x3C (0006ms, 16782ms total)
T02BC 794:243 JLINK_ReadMemEx(0x0800025C, 0x0002 Bytes, ..., AccessWidth = 33554432)Mis-aligned memory read: Address: 0x0800025C, NumBytes: 2, Alignment: 2 (Halfword-aligned)
  ***** Mis-aligned memory read: Address: 0x0800025C, NumBytes: 2, Alignment: 2 (Halfword-aligned) -- Read from C cache (2 bytes @ 0x0800025C) - Data: 06 48  returns 0x02 (0004ms, 16786ms total)
T02BC 794:248 JLINK_ReadMemEx(0x0800025E, 0x0002 Bytes, ..., AccessWidth = 33554432)Mis-aligned memory read: Address: 0x0800025E, NumBytes: 2, Alignment: 2 (Halfword-aligned)
  ***** Mis-aligned memory read: Address: 0x0800025E, NumBytes: 2, Alignment: 2 (Halfword-aligned) -- Read from C cache (2 bytes @ 0x0800025E) - Data: 80 47  returns 0x02 (0003ms, 16789ms total)
T02BC 794:251 JLINK_ReadMemEx(0x0800025E, 0x0002 Bytes, ..., AccessWidth = 33554432)Mis-aligned memory read: Address: 0x0800025E, NumBytes: 2, Alignment: 2 (Halfword-aligned)
  ***** Mis-aligned memory read: Address: 0x0800025E, NumBytes: 2, Alignment: 2 (Halfword-aligned) -- Read from C cache (2 bytes @ 0x0800025E) - Data: 80 47  returns 0x02 (0003ms, 16792ms total)
T02BC 794:254 JLINK_ReadMemEx(0x08000260, 0x003C Bytes, ..., AccessWidth = 33554432)Mis-aligned memory read: Address: 0x08000260, NumBytes: 60, Alignment: 2 (Halfword-aligned)
  ***** Mis-aligned memory read: Address: 0x08000260, NumBytes: 60, Alignment: 2 (Halfword-aligned) -- Read from C cache (60 bytes @ 0x08000260) - Data: 06 48 00 47 FE E7 FE E7 FE E7 FE E7 FE E7 FE E7 ...  returns 0x3C (0003ms, 16795ms total)
T02BC 794:257 JLINK_ReadMemEx(0x08000260, 0x0002 Bytes, ..., AccessWidth = 33554432)Mis-aligned memory read: Address: 0x08000260, NumBytes: 2, Alignment: 2 (Halfword-aligned)
  ***** Mis-aligned memory read: Address: 0x08000260, NumBytes: 2, Alignment: 2 (Halfword-aligned) -- Read from C cache (2 bytes @ 0x08000260) - Data: 06 48  returns 0x02 (0002ms, 16797ms total)
T02BC 795:320 JLINK_ReadReg(R0)  returns 0x00000000 (0008ms, 16806ms total)
T02BC 795:328 JLINK_ReadReg(R1)  returns 0x00000000 (0001ms, 16807ms total)
T02BC 795:329 JLINK_ReadReg(R2)  returns 0x00000000 (0000ms, 16807ms total)
T02BC 795:329 JLINK_ReadReg(R3)  returns 0x00000000 (0001ms, 16808ms total)
T02BC 795:330 JLINK_ReadReg(R4)  returns 0x00000000 (0000ms, 16808ms total)
T02BC 795:331 JLINK_ReadReg(R5)  returns 0x00000000 (0000ms, 16809ms total)
T02BC 795:331 JLINK_ReadReg(R6)  returns 0x00000000 (0000ms, 16809ms total)
T02BC 795:332 JLINK_ReadReg(R7)  returns 0x00000000 (0000ms, 16810ms total)
T02BC 795:332 JLINK_ReadReg(R8)  returns 0x00000000 (0000ms, 16810ms total)
T02BC 795:332 JLINK_ReadReg(R9)  returns 0x00000000 (0001ms, 16811ms total)
T02BC 795:333 JLINK_ReadReg(R10)  returns 0x00000000 (0000ms, 16811ms total)
T02BC 795:333 JLINK_ReadReg(R11)  returns 0x00000000 (0001ms, 16812ms total)
T02BC 795:334 JLINK_ReadReg(R12)  returns 0x00000000 (0000ms, 16812ms total)
T02BC 795:334 JLINK_ReadReg(R13 (SP))  returns 0x20004460 (0000ms, 16812ms total)
T02BC 795:335 JLINK_ReadReg(R14)  returns 0xFFFFFFFF (0000ms, 16813ms total)
T02BC 795:335 JLINK_ReadReg(R15 (PC))  returns 0x0800025C (0000ms, 16813ms total)
T02BC 795:335 JLINK_ReadReg(XPSR)  returns 0x01000000 (0000ms, 16813ms total)
T02BC 795:335 JLINK_ReadReg(MSP)  returns 0x20004460 (0001ms, 16814ms total)
T02BC 795:336 JLINK_ReadReg(PSP)  returns 0x00000000 (0000ms, 16814ms total)
T02BC 795:336 JLINK_ReadReg(CFBP)  returns 0x00000000 (0001ms, 16815ms total)
T02BC 795:337 JLINK_ReadReg(FPSCR)  returns 0x00000000 (0015ms, 16830ms total)
T02BC 795:352 JLINK_ReadReg(FPS0)  returns 0x00000000 (0000ms, 16830ms total)
T02BC 795:352 JLINK_ReadReg(FPS1)  returns 0x00000000 (0001ms, 16831ms total)
T02BC 795:353 JLINK_ReadReg(FPS2)  returns 0x00000000 (0000ms, 16831ms total)
T02BC 795:353 JLINK_ReadReg(FPS3)  returns 0x00000000 (0000ms, 16831ms total)
T02BC 795:353 JLINK_ReadReg(FPS4)  returns 0x00000000 (0001ms, 16832ms total)
T02BC 795:354 JLINK_ReadReg(FPS5)  returns 0x00000000 (0000ms, 16832ms total)
T02BC 795:354 JLINK_ReadReg(FPS6)  returns 0x00000000 (0000ms, 16832ms total)
T02BC 795:354 JLINK_ReadReg(FPS7)  returns 0x00000000 (0001ms, 16833ms total)
T02BC 795:355 JLINK_ReadReg(FPS8)  returns 0x00000000 (0000ms, 16833ms total)
T02BC 795:355 JLINK_ReadReg(FPS9)  returns 0x00000000 (0000ms, 16833ms total)
T02BC 795:356 JLINK_ReadReg(FPS10)  returns 0x00000000 (0000ms, 16834ms total)
T02BC 795:356 JLINK_ReadReg(FPS11)  returns 0x00000000 (0000ms, 16834ms total)
T02BC 795:356 JLINK_ReadReg(FPS12)  returns 0x00000000 (0001ms, 16835ms total)
T02BC 795:357 JLINK_ReadReg(FPS13)  returns 0x00000000 (0000ms, 16835ms total)
T02BC 795:357 JLINK_ReadReg(FPS14)  returns 0x00000000 (0000ms, 16835ms total)
T02BC 795:357 JLINK_ReadReg(FPS15)  returns 0x00000000 (0000ms, 16835ms total)
T02BC 795:357 JLINK_ReadReg(FPS16)  returns 0x00000000 (0001ms, 16836ms total)
T02BC 795:358 JLINK_ReadReg(FPS17)  returns 0x00000000 (0000ms, 16836ms total)
T02BC 795:358 JLINK_ReadReg(FPS18)  returns 0x00000000 (0000ms, 16836ms total)
T02BC 795:358 JLINK_ReadReg(FPS19)  returns 0x00000000 (0000ms, 16836ms total)
T02BC 795:359 JLINK_ReadReg(FPS20)  returns 0x00000000 (0000ms, 16837ms total)
T02BC 795:359 JLINK_ReadReg(FPS21)  returns 0x00000000 (0000ms, 16837ms total)
T02BC 795:359 JLINK_ReadReg(FPS22)  returns 0x00000000 (0000ms, 16837ms total)
T02BC 795:359 JLINK_ReadReg(FPS23)  returns 0x00000000 (0001ms, 16838ms total)
T02BC 795:360 JLINK_ReadReg(FPS24)  returns 0x00000000 (0000ms, 16838ms total)
T02BC 795:360 JLINK_ReadReg(FPS25)  returns 0x00000000 (0000ms, 16838ms total)
T02BC 795:360 JLINK_ReadReg(FPS26)  returns 0x00000000 (0000ms, 16838ms total)
T02BC 795:360 JLINK_ReadReg(FPS27)  returns 0x00000000 (0001ms, 16839ms total)
T02BC 795:361 JLINK_ReadReg(FPS28)  returns 0x00000000 (0000ms, 16839ms total)
T02BC 795:361 JLINK_ReadReg(FPS29)  returns 0x00000000 (0000ms, 16839ms total)
T02BC 795:361 JLINK_ReadReg(FPS30)  returns 0x00000000 (0000ms, 16839ms total)
T02BC 795:361 JLINK_ReadReg(FPS31)  returns 0x00000000 (0001ms, 16840ms total)
T0F94 795:418 JLINK_ReadMemEx(0x0800025C, 0x0002 Bytes, ..., AccessWidth = 33554432)Mis-aligned memory read: Address: 0x0800025C, NumBytes: 2, Alignment: 2 (Halfword-aligned)
  ***** Mis-aligned memory read: Address: 0x0800025C, NumBytes: 2, Alignment: 2 (Halfword-aligned) -- Read from C cache (2 bytes @ 0x0800025C) - Data: 06 48  returns 0x02 (0001ms, 16841ms total)
T0F94 795:419 JLINK_SetBPEx(Addr = 0x0800145E, Type = 0xFFFFFFF2)  returns 0x00000001 (0001ms, 16842ms total)
T0F94 795:420 JLINK_SetBPEx(Addr = 0x080003DC, Type = 0xFFFFFFF2)  returns 0x00000002 (0000ms, 16842ms total)
T0F94 795:420 JLINK_SetBPEx(Addr = 0x08001144, Type = 0xFFFFFFF2)  returns 0x00000003 (0001ms, 16843ms total)
T0F94 795:421 JLINK_Go() -- CPU_WriteMem(4 bytes @ 0xE0002000) -- CPU_WriteMem(4 bytes @ 0xE0002000) -- CPU_WriteMem(4 bytes @ 0xE0002000) -- CPU_WriteMem(4 bytes @ 0xE0002008) -- CPU_WriteMem(4 bytes @ 0xE000200C) -- CPU_WriteMem(4 bytes @ 0xE0002010) -- CPU_WriteMem(4 bytes @ 0xE0002014) -- CPU_WriteMem(4 bytes @ 0xE0002018) -- CPU_WriteMem(4 bytes @ 0xE000201C) -- CPU_WriteMem(4 bytes @ 0xE0001004) (0044ms, 16887ms total)
T0F94 795:566 JLINK_IsHalted()  returns TRUE (0016ms, 16903ms total)
T0F94 795:582 JLINK_Halt()  returns 0x00 (0001ms, 16888ms total)
T0F94 795:583 JLINK_IsHalted()  returns TRUE (0000ms, 16888ms total)
T0F94 795:584 JLINK_IsHalted()  returns TRUE (0000ms, 16888ms total)
T0F94 795:588 JLINK_IsHalted()  returns TRUE (0000ms, 16888ms total)
T0F94 795:588 JLINK_ReadReg(R15 (PC))  returns 0x0800145E (0001ms, 16889ms total)
T0F94 795:589 JLINK_ReadReg(XPSR)  returns 0x61000000 (0000ms, 16889ms total)
T0F94 795:589 JLINK_ClrBPEx(BPHandle = 0x00000001)  returns 0x00 (0001ms, 16890ms total)
T0F94 795:590 JLINK_ClrBPEx(BPHandle = 0x00000002)  returns 0x00 (0000ms, 16890ms total)
T0F94 795:590 JLINK_ClrBPEx(BPHandle = 0x00000003)  returns 0x00 (0000ms, 16890ms total)
T0F94 795:590 JLINK_ReadMemU32(0xE000ED30, 0x0001 Items, ...) -- CPU_ReadMem(4 bytes @ 0xE000ED30) - Data: 02 00 00 00  returns 0x01 (0005ms, 16895ms total)
T0F94 795:595 JLINK_ReadMemU32(0xE0001028, 0x0001 Items, ...) -- CPU_ReadMem(4 bytes @ 0xE0001028) - Data: 00 00 00 00  returns 0x01 (0003ms, 16898ms total)
T0F94 795:598 JLINK_ReadMemU32(0xE0001038, 0x0001 Items, ...) -- CPU_ReadMem(4 bytes @ 0xE0001038) - Data: 00 02 00 00  returns 0x01 (0004ms, 16902ms total)
T0F94 795:602 JLINK_ReadMemU32(0xE0001048, 0x0001 Items, ...) -- CPU_ReadMem(4 bytes @ 0xE0001048) - Data: 00 00 00 00  returns 0x01 (0004ms, 16906ms total)
T0F94 795:606 JLINK_ReadMemU32(0xE0001058, 0x0001 Items, ...) -- CPU_ReadMem(4 bytes @ 0xE0001058) - Data: 00 00 00 00  returns 0x01 (0004ms, 16910ms total)
T0F94 795:610 JLINK_ReadReg(R0)  returns 0x0800145F (0000ms, 16910ms total)
T0F94 795:610 JLINK_ReadReg(R1)  returns 0x20004460 (0001ms, 16911ms total)
T0F94 795:611 JLINK_ReadReg(R2)  returns 0x00000000 (0000ms, 16911ms total)
T0F94 795:611 JLINK_ReadReg(R3)  returns 0x08001451 (0000ms, 16911ms total)
T0F94 795:611 JLINK_ReadReg(R4)  returns 0x08001FA0 (0001ms, 16912ms total)
T0F94 795:612 JLINK_ReadReg(R5)  returns 0x08001FA0 (0000ms, 16912ms total)
T0F94 795:612 JLINK_ReadReg(R6)  returns 0x00000000 (0000ms, 16912ms total)
T0F94 795:612 JLINK_ReadReg(R7)  returns 0x00000000 (0000ms, 16912ms total)
T0F94 795:613 JLINK_ReadReg(R8)  returns 0x00000000 (0000ms, 16913ms total)
T0F94 795:613 JLINK_ReadReg(R9)  returns 0x00000000 (0000ms, 16913ms total)
T0F94 795:613 JLINK_ReadReg(R10)  returns 0x00000000 (0000ms, 16913ms total)
T0F94 795:614 JLINK_ReadReg(R11)  returns 0x00000000 (0001ms, 16915ms total)
T0F94 795:615 JLINK_ReadReg(R12)  returns 0x00000000 (0000ms, 16915ms total)
T0F94 795:615 JLINK_ReadReg(R13 (SP))  returns 0x20004460 (0000ms, 16915ms total)
T0F94 795:615 JLINK_ReadReg(R14)  returns 0x08000385 (0000ms, 16915ms total)
T0F94 795:616 JLINK_ReadReg(R15 (PC))  returns 0x0800145E (0000ms, 16916ms total)
T0F94 795:616 JLINK_ReadReg(XPSR)  returns 0x61000000 (0000ms, 16916ms total)
T0F94 795:616 JLINK_ReadReg(MSP)  returns 0x20004460 (0000ms, 16916ms total)
T0F94 795:616 JLINK_ReadReg(PSP)  returns 0x00000000 (0001ms, 16917ms total)
T0F94 795:617 JLINK_ReadReg(CFBP)  returns 0x00000000 (0000ms, 16917ms total)
T0F94 795:617 JLINK_ReadReg(FPSCR)  returns 0x00000000 (0012ms, 16929ms total)
T0F94 795:629 JLINK_ReadReg(FPS0)  returns 0x00000000 (0000ms, 16929ms total)
T0F94 795:629 JLINK_ReadReg(FPS1)  returns 0x00000000 (0001ms, 16930ms total)
T0F94 795:630 JLINK_ReadReg(FPS2)  returns 0x00000000 (0000ms, 16930ms total)
T0F94 795:630 JLINK_ReadReg(FPS3)  returns 0x00000000 (0001ms, 16931ms total)
T0F94 795:631 JLINK_ReadReg(FPS4)  returns 0x00000000 (0000ms, 16931ms total)
T0F94 795:631 JLINK_ReadReg(FPS5)  returns 0x00000000 (0001ms, 16932ms total)
T0F94 795:632 JLINK_ReadReg(FPS6)  returns 0x00000000 (0000ms, 16932ms total)
T0F94 795:632 JLINK_ReadReg(FPS7)  returns 0x00000000 (0000ms, 16932ms total)
T0F94 795:633 JLINK_ReadReg(FPS8)  returns 0x00000000 (0000ms, 16933ms total)
T0F94 795:633 JLINK_ReadReg(FPS9)  returns 0x00000000 (0000ms, 16933ms total)
T0F94 795:633 JLINK_ReadReg(FPS10)  returns 0x00000000 (0001ms, 16934ms total)
T0F94 795:634 JLINK_ReadReg(FPS11)  returns 0x00000000 (0000ms, 16934ms total)
T0F94 795:634 JLINK_ReadReg(FPS12)  returns 0x00000000 (0000ms, 16934ms total)
T0F94 795:634 JLINK_ReadReg(FPS13)  returns 0x00000000 (0000ms, 16934ms total)
T0F94 795:635 JLINK_ReadReg(FPS14)  returns 0x00000000 (0000ms, 16935ms total)
T0F94 795:635 JLINK_ReadReg(FPS15)  returns 0x00000000 (0000ms, 16935ms total)
T0F94 795:635 JLINK_ReadReg(FPS16)  returns 0x00000000 (0000ms, 16935ms total)
T0F94 795:635 JLINK_ReadReg(FPS17)  returns 0x00000000 (0001ms, 16936ms total)
T0F94 795:636 JLINK_ReadReg(FPS18)  returns 0x00000000 (0000ms, 16936ms total)
T0F94 795:636 JLINK_ReadReg(FPS19)  returns 0x00000000 (0000ms, 16936ms total)
T0F94 795:637 JLINK_ReadReg(FPS20)  returns 0x00000000 (0000ms, 16937ms total)
T0F94 795:637 JLINK_ReadReg(FPS21)  returns 0x00000000 (0000ms, 16937ms total)
T0F94 795:637 JLINK_ReadReg(FPS22)  returns 0x00000000 (0000ms, 16937ms total)
T0F94 795:638 JLINK_ReadReg(FPS23)  returns 0x00000000 (0000ms, 16938ms total)
T0F94 795:638 JLINK_ReadReg(FPS24)  returns 0x00000000 (0000ms, 16938ms total)
T0F94 795:638 JLINK_ReadReg(FPS25)  returns 0x00000000 (0000ms, 16938ms total)
T0F94 795:638 JLINK_ReadReg(FPS26)  returns 0x00000000 (0001ms, 16939ms total)
T0F94 795:639 JLINK_ReadReg(FPS27)  returns 0x00000000 (0000ms, 16939ms total)
T0F94 795:639 JLINK_ReadReg(FPS28)  returns 0x00000000 (0000ms, 16939ms total)
T0F94 795:639 JLINK_ReadReg(FPS29)  returns 0x00000000 (0001ms, 16940ms total)
T0F94 795:640 JLINK_ReadReg(FPS30)  returns 0x00000000 (0000ms, 16940ms total)
T0F94 795:640 JLINK_ReadReg(FPS31)  returns 0x00000000 (0000ms, 16940ms total)
T02BC 795:643 JLINK_ReadMemU32(0xE0001004, 0x0001 Items, ...) -- CPU_ReadMem(4 bytes @ 0xE0001004) - Data: 50 67 00 00  returns 0x01 (0004ms, 16944ms total)
T0F94 796:177 JLINK_ReadMemEx(0x0800145E, 0x0002 Bytes, ..., AccessWidth = 33554432)Mis-aligned memory read: Address: 0x0800145E, NumBytes: 2, Alignment: 2 (Halfword-aligned)
  ***** Mis-aligned memory read: Address: 0x0800145E, NumBytes: 2, Alignment: 2 (Halfword-aligned) -- CPU_ReadMem(64 bytes @ 0x08001440) -- Updating C cache (64 bytes @ 0x08001440) -- Read from C cache (2 bytes @ 0x0800145E) - Data: FF F7  returns 0x02 (0012ms, 16956ms total)
T0F94 796:190 JLINK_SetBPEx(Addr = 0x080003DC, Type = 0xFFFFFFF2)  returns 0x00000004 (0003ms, 16960ms total)
T0F94 796:193 JLINK_SetBPEx(Addr = 0x08001144, Type = 0xFFFFFFF2)  returns 0x00000005 (0001ms, 16961ms total)
T0F94 796:194 JLINK_Go() -- CPU_WriteMem(4 bytes @ 0xE0002000) -- CPU_WriteMem(4 bytes @ 0xE0002000) -- CPU_WriteMem(4 bytes @ 0xE0002008) -- CPU_WriteMem(4 bytes @ 0xE000200C) -- CPU_WriteMem(4 bytes @ 0xE0002010) (0025ms, 16986ms total)
T0F94 796:320 JLINK_IsHalted()  returns FALSE (0011ms, 16997ms total)
T0F94 796:432 JLINK_IsHalted()  returns FALSE (0007ms, 16993ms total)
T0F94 796:540 JLINK_IsHalted()  returns FALSE (0003ms, 16989ms total)
T0F94 796:644 JLINK_IsHalted()  returns FALSE (0003ms, 16989ms total)
T0F94 796:748 JLINK_ReadMemU32(0xE0001004, 0x0001 Items, ...) -- CPU is running -- CPU_ReadMem(4 bytes @ 0xE0001004) - Data: 37 32 5A 05  returns 0x01 (0008ms, 16994ms total)
T0F94 796:759 JLINK_IsHalted()  returns FALSE (0005ms, 16999ms total)
T0F94 796:865 JLINK_IsHalted()  returns FALSE (0007ms, 17001ms total)
T0F94 796:973 JLINK_IsHalted()  returns FALSE (0022ms, 17016ms total)
T0F94 797:096 JLINK_IsHalted()  returns FALSE (0008ms, 17002ms total)
T0F94 797:205 JLINK_IsHalted()  returns FALSE (0005ms, 16999ms total)
T0F94 797:311 JLINK_ReadMemU32(0xE0001004, 0x0001 Items, ...) -- CPU is running -- CPU_ReadMem(4 bytes @ 0xE0001004) - Data: 33 26 04 0A  returns 0x01 (0005ms, 16999ms total)
T0F94 797:320 JLINK_IsHalted()  returns TRUE (0014ms, 17014ms total)
T0F94 797:334 JLINK_Halt()  returns 0x00 (0002ms, 17002ms total)
T0F94 797:336 JLINK_IsHalted()  returns TRUE (0001ms, 17003ms total)
T0F94 797:338 JLINK_IsHalted()  returns TRUE (0001ms, 17003ms total)
T0F94 797:339 JLINK_IsHalted()  returns TRUE (0001ms, 17003ms total)
T0F94 797:341 JLINK_ReadReg(R15 (PC))  returns 0x080003DC (0001ms, 17003ms total)
T0F94 797:342 JLINK_ReadReg(XPSR)  returns 0x01000000 (0001ms, 17004ms total)
T0F94 797:343 JLINK_ClrBPEx(BPHandle = 0x00000004)  returns 0x00 (0003ms, 17007ms total)
T0F94 797:346 JLINK_ClrBPEx(BPHandle = 0x00000005)  returns 0x00 (0001ms, 17008ms total)
T0F94 797:347 JLINK_ReadMemU32(0xE000ED30, 0x0001 Items, ...) -- CPU_ReadMem(4 bytes @ 0xE000ED30) - Data: 02 00 00 00  returns 0x01 (0006ms, 17014ms total)
T0F94 797:353 JLINK_ReadMemU32(0xE0001028, 0x0001 Items, ...) -- CPU_ReadMem(4 bytes @ 0xE0001028) - Data: 00 00 00 00  returns 0x01 (0006ms, 17020ms total)
T0F94 797:359 JLINK_ReadMemU32(0xE0001038, 0x0001 Items, ...) -- CPU_ReadMem(4 bytes @ 0xE0001038) - Data: 00 02 00 00  returns 0x01 (0006ms, 17026ms total)
T0F94 797:365 JLINK_ReadMemU32(0xE0001048, 0x0001 Items, ...) -- CPU_ReadMem(4 bytes @ 0xE0001048) - Data: 00 00 00 00  returns 0x01 (0006ms, 17032ms total)
T0F94 797:371 JLINK_ReadMemU32(0xE0001058, 0x0001 Items, ...) -- CPU_ReadMem(4 bytes @ 0xE0001058) - Data: 00 00 00 00  returns 0x01 (0005ms, 17037ms total)
T0F94 797:377 JLINK_ReadReg(R0)  returns 0x00000000 (0001ms, 17039ms total)
T0F94 797:378 JLINK_ReadReg(R1)  returns 0x00000010 (0001ms, 17040ms total)
T0F94 797:379 JLINK_ReadReg(R2)  returns 0x00000001 (0002ms, 17042ms total)
T0F94 797:381 JLINK_ReadReg(R3)  returns 0x20000404 (0001ms, 17043ms total)
T0F94 797:383 JLINK_ReadReg(R4)  returns 0x00000400 (0001ms, 17045ms total)
T0F94 797:384 JLINK_ReadReg(R5)  returns 0x40021400 (0001ms, 17046ms total)
T0F94 797:386 JLINK_ReadReg(R6)  returns 0x00000001 (0000ms, 17047ms total)
T0F94 797:386 JLINK_ReadReg(R7)  returns 0x00000000 (0002ms, 17049ms total)
T0F94 797:388 JLINK_ReadReg(R8)  returns 0x00000000 (0001ms, 17050ms total)
T0F94 797:391 JLINK_ReadReg(R9)  returns 0x00000000 (0001ms, 17053ms total)
T0F94 797:392 JLINK_ReadReg(R10)  returns 0x00000000 (0001ms, 17054ms total)
T0F94 797:393 JLINK_ReadReg(R11)  returns 0x00000000 (0001ms, 17055ms total)
T0F94 797:394 JLINK_ReadReg(R12)  returns 0x00000000 (0002ms, 17057ms total)
T0F94 797:396 JLINK_ReadReg(R13 (SP))  returns 0x200008C8 (0001ms, 17058ms total)
T0F94 797:399 JLINK_ReadReg(R14)  returns 0x08001411 (0000ms, 17060ms total)
T0F94 797:399 JLINK_ReadReg(R15 (PC))  returns 0x080003DC (0002ms, 17062ms total)
T0F94 797:401 JLINK_ReadReg(XPSR)  returns 0x01000000 (0001ms, 17063ms total)
T0F94 797:403 JLINK_ReadReg(MSP)  returns 0x20004440 (0001ms, 17065ms total)
T0F94 797:404 JLINK_ReadReg(PSP)  returns 0x200008C8 (0001ms, 17066ms total)
T0F94 797:406 JLINK_ReadReg(CFBP)  returns 0x02000000 (0001ms, 17068ms total)
T0F94 797:408 JLINK_ReadReg(FPSCR)  returns 0x00000000 (0011ms, 17080ms total)
T0F94 797:420 JLINK_ReadReg(FPS0)  returns 0x00000000 (0001ms, 17082ms total)
T0F94 797:422 JLINK_ReadReg(FPS1)  returns 0x00000000 (0001ms, 17084ms total)
T0F94 797:423 JLINK_ReadReg(FPS2)  returns 0x00000000 (0002ms, 17086ms total)
T0F94 797:425 JLINK_ReadReg(FPS3)  returns 0x00000000 (0001ms, 17087ms total)
T0F94 797:426 JLINK_ReadReg(FPS4)  returns 0x00000000 (0001ms, 17088ms total)
T0F94 797:427 JLINK_ReadReg(FPS5)  returns 0x00000000 (0001ms, 17089ms total)
T0F94 797:429 JLINK_ReadReg(FPS6)  returns 0x00000000 (0001ms, 17091ms total)
T0F94 797:430 JLINK_ReadReg(FPS7)  returns 0x00000000 (0002ms, 17093ms total)
T0F94 797:432 JLINK_ReadReg(FPS8)  returns 0x00000000 (0005ms, 17098ms total)
T0F94 797:438 JLINK_ReadReg(FPS9)  returns 0x00000000 (0000ms, 17099ms total)
T0F94 797:439 JLINK_ReadReg(FPS10)  returns 0x00000000 (0001ms, 17101ms total)
T0F94 797:440 JLINK_ReadReg(FPS11)  returns 0x00000000 (0001ms, 17102ms total)
T0F94 797:442 JLINK_ReadReg(FPS12)  returns 0x00000000 (0001ms, 17104ms total)
T0F94 797:443 JLINK_ReadReg(FPS13)  returns 0x00000000 (0002ms, 17106ms total)
T0F94 797:445 JLINK_ReadReg(FPS14)  returns 0x00000000 (0001ms, 17107ms total)
T0F94 797:447 JLINK_ReadReg(FPS15)  returns 0x00000000 (0001ms, 17109ms total)
T0F94 797:448 JLINK_ReadReg(FPS16)  returns 0x00000000 (0001ms, 17110ms total)
T0F94 797:450 JLINK_ReadReg(FPS17)  returns 0x00000000 (0001ms, 17112ms total)
T0F94 797:451 JLINK_ReadReg(FPS18)  returns 0x00000000 (0002ms, 17114ms total)
T0F94 797:453 JLINK_ReadReg(FPS19)  returns 0x00000000 (0001ms, 17115ms total)
T0F94 797:455 JLINK_ReadReg(FPS20)  returns 0x00000000 (0001ms, 17117ms total)
T0F94 797:457 JLINK_ReadReg(FPS21)  returns 0x00000000 (0001ms, 17119ms total)
T0F94 797:458 JLINK_ReadReg(FPS22)  returns 0x00000000 (0001ms, 17120ms total)
T0F94 797:460 JLINK_ReadReg(FPS23)  returns 0x00000000 (0001ms, 17122ms total)
T0F94 797:461 JLINK_ReadReg(FPS24)  returns 0x00000000 (0001ms, 17123ms total)
T0F94 797:463 JLINK_ReadReg(FPS25)  returns 0x00000000 (0001ms, 17125ms total)
T0F94 797:464 JLINK_ReadReg(FPS26)  returns 0x00000000 (0001ms, 17126ms total)
T0F94 797:465 JLINK_ReadReg(FPS27)  returns 0x00000000 (0001ms, 17127ms total)
T0F94 797:467 JLINK_ReadReg(FPS28)  returns 0x00000000 (0001ms, 17129ms total)
T0F94 797:468 JLINK_ReadReg(FPS29)  returns 0x00000000 (0001ms, 17130ms total)
T0F94 797:469 JLINK_ReadReg(FPS30)  returns 0x00000000 (0001ms, 17131ms total)
T0F94 797:470 JLINK_ReadReg(FPS31)  returns 0x00000000 (0001ms, 17132ms total)
T02BC 797:472 JLINK_ReadMemU32(0xE0001004, 0x0001 Items, ...) -- CPU_ReadMem(4 bytes @ 0xE0001004) - Data: 33 26 04 0A  returns 0x01 (0005ms, 17137ms total)
T02BC 797:481 JLINK_ReadMemEx(0x080003DC, 0x003C Bytes, ..., AccessWidth = 33554432)Mis-aligned memory read: Address: 0x080003DC, NumBytes: 60, Alignment: 2 (Halfword-aligned)
  ***** Mis-aligned memory read: Address: 0x080003DC, NumBytes: 60, Alignment: 2 (Halfword-aligned) -- CPU_ReadMem(128 bytes @ 0x080003C0) -- Updating C cache (128 bytes @ 0x080003C0) -- Read from C cache (60 bytes @ 0x080003DC) - Data: 00 F0 B2 FE 02 28 0A D0 03 28 0A D0 01 22 21 46 ...  returns 0x3C (0006ms, 17143ms total)
T02BC 797:488 JLINK_ReadMemEx(0x080003DC, 0x0002 Bytes, ..., AccessWidth = 33554432)Mis-aligned memory read: Address: 0x080003DC, NumBytes: 2, Alignment: 2 (Halfword-aligned)
  ***** Mis-aligned memory read: Address: 0x080003DC, NumBytes: 2, Alignment: 2 (Halfword-aligned) -- Read from C cache (2 bytes @ 0x080003DC) - Data: 00 F0  returns 0x02 (0002ms, 17146ms total)
T02BC 797:490 JLINK_ReadMemEx(0x080003DE, 0x0002 Bytes, ..., AccessWidth = 33554432)Mis-aligned memory read: Address: 0x080003DE, NumBytes: 2, Alignment: 2 (Halfword-aligned)
  ***** Mis-aligned memory read: Address: 0x080003DE, NumBytes: 2, Alignment: 2 (Halfword-aligned) -- Read from C cache (2 bytes @ 0x080003DE) - Data: B2 FE  returns 0x02 (0003ms, 17149ms total)
T0F94 798:225 JLINK_ReadMemEx(0x080003DC, 0x0002 Bytes, ..., AccessWidth = 33554432)Mis-aligned memory read: Address: 0x080003DC, NumBytes: 2, Alignment: 2 (Halfword-aligned)
  ***** Mis-aligned memory read: Address: 0x080003DC, NumBytes: 2, Alignment: 2 (Halfword-aligned) -- Read from C cache (2 bytes @ 0x080003DC) - Data: 00 F0  returns 0x02 (0004ms, 17153ms total)
T0F94 798:229 JLINK_Step() -- Read from C cache (2 bytes @ 0x080003DC) -- Read from C cache (2 bytes @ 0x080003DE) -- Simulated  returns 0x00 (0012ms, 17165ms total)
T0F94 798:242 JLINK_ReadReg(R15 (PC))  returns 0x08001144 (0003ms, 17169ms total)
T0F94 798:245 JLINK_ReadReg(XPSR)  returns 0x01000000 (0001ms, 17170ms total)
T0F94 798:246 JLINK_ReadReg(R0)  returns 0x00000000 (0001ms, 17171ms total)
T0F94 798:248 JLINK_ReadReg(R1)  returns 0x00000010 (0001ms, 17173ms total)
T0F94 798:249 JLINK_ReadReg(R2)  returns 0x00000001 (0001ms, 17174ms total)
T0F94 798:251 JLINK_ReadReg(R3)  returns 0x20000404 (0001ms, 17176ms total)
T0F94 798:252 JLINK_ReadReg(R4)  returns 0x00000400 (0001ms, 17177ms total)
T0F94 798:253 JLINK_ReadReg(R5)  returns 0x40021400 (0001ms, 17178ms total)
T0F94 798:254 JLINK_ReadReg(R6)  returns 0x00000001 (0001ms, 17179ms total)
T0F94 798:255 JLINK_ReadReg(R7)  returns 0x00000000 (0001ms, 17180ms total)
T0F94 798:256 JLINK_ReadReg(R8)  returns 0x00000000 (0001ms, 17181ms total)
T0F94 798:257 JLINK_ReadReg(R9)  returns 0x00000000 (0000ms, 17181ms total)
T0F94 798:258 JLINK_ReadReg(R10)  returns 0x00000000 (0000ms, 17182ms total)
T0F94 798:259 JLINK_ReadReg(R11)  returns 0x00000000 (0001ms, 17184ms total)
T0F94 798:260 JLINK_ReadReg(R12)  returns 0x00000000 (0000ms, 17184ms total)
T0F94 798:260 JLINK_ReadReg(R13 (SP))  returns 0x200008C8 (0001ms, 17185ms total)
T0F94 798:261 JLINK_ReadReg(R14)  returns 0x080003E1 (0001ms, 17186ms total)
T0F94 798:262 JLINK_ReadReg(R15 (PC))  returns 0x08001144 (0000ms, 17186ms total)
T0F94 798:262 JLINK_ReadReg(XPSR)  returns 0x01000000 (0001ms, 17187ms total)
T0F94 798:263 JLINK_ReadReg(MSP)  returns 0x20004440 (0000ms, 17187ms total)
T0F94 798:264 JLINK_ReadReg(PSP)  returns 0x200008C8 (0000ms, 17188ms total)
T0F94 798:264 JLINK_ReadReg(CFBP)  returns 0x02000000 (0001ms, 17189ms total)
T0F94 798:265 JLINK_ReadReg(FPSCR)  returns 0x00000000 (0000ms, 17189ms total)
T0F94 798:265 JLINK_ReadReg(FPS0)  returns 0x00000000 (0000ms, 17189ms total)
T0F94 798:266 JLINK_ReadReg(FPS1)  returns 0x00000000 (0000ms, 17190ms total)
T0F94 798:266 JLINK_ReadReg(FPS2)  returns 0x00000000 (0000ms, 17190ms total)
T0F94 798:266 JLINK_ReadReg(FPS3)  returns 0x00000000 (0000ms, 17190ms total)
T0F94 798:266 JLINK_ReadReg(FPS4)  returns 0x00000000 (0001ms, 17191ms total)
T0F94 798:267 JLINK_ReadReg(FPS5)  returns 0x00000000 (0000ms, 17191ms total)
T0F94 798:267 JLINK_ReadReg(FPS6)  returns 0x00000000 (0000ms, 17191ms total)
T0F94 798:267 JLINK_ReadReg(FPS7)  returns 0x00000000 (0001ms, 17192ms total)
T0F94 798:268 JLINK_ReadReg(FPS8)  returns 0x00000000 (0000ms, 17192ms total)
T0F94 798:268 JLINK_ReadReg(FPS9)  returns 0x00000000 (0000ms, 17192ms total)
T0F94 798:268 JLINK_ReadReg(FPS10)  returns 0x00000000 (0000ms, 17192ms total)
T0F94 798:269 JLINK_ReadReg(FPS11)  returns 0x00000000 (0000ms, 17193ms total)
T0F94 798:269 JLINK_ReadReg(FPS12)  returns 0x00000000 (0000ms, 17193ms total)
T0F94 798:269 JLINK_ReadReg(FPS13)  returns 0x00000000 (0001ms, 17194ms total)
T0F94 798:270 JLINK_ReadReg(FPS14)  returns 0x00000000 (0000ms, 17194ms total)
T0F94 798:270 JLINK_ReadReg(FPS15)  returns 0x00000000 (0001ms, 17195ms total)
T0F94 798:271 JLINK_ReadReg(FPS16)  returns 0x00000000 (0000ms, 17195ms total)
T0F94 798:272 JLINK_ReadReg(FPS17)  returns 0x00000000 (0000ms, 17196ms total)
T0F94 798:272 JLINK_ReadReg(FPS18)  returns 0x00000000 (0000ms, 17196ms total)
T0F94 798:272 JLINK_ReadReg(FPS19)  returns 0x00000000 (0001ms, 17197ms total)
T0F94 798:273 JLINK_ReadReg(FPS20)  returns 0x00000000 (0000ms, 17197ms total)
T0F94 798:273 JLINK_ReadReg(FPS21)  returns 0x00000000 (0000ms, 17197ms total)
T0F94 798:274 JLINK_ReadReg(FPS22)  returns 0x00000000 (0000ms, 17198ms total)
T0F94 798:274 JLINK_ReadReg(FPS23)  returns 0x00000000 (0001ms, 17199ms total)
T0F94 798:275 JLINK_ReadReg(FPS24)  returns 0x00000000 (0000ms, 17199ms total)
T0F94 798:275 JLINK_ReadReg(FPS25)  returns 0x00000000 (0000ms, 17199ms total)
T0F94 798:275 JLINK_ReadReg(FPS26)  returns 0x00000000 (0001ms, 17200ms total)
T0F94 798:276 JLINK_ReadReg(FPS27)  returns 0x00000000 (0000ms, 17200ms total)
T0F94 798:276 JLINK_ReadReg(FPS28)  returns 0x00000000 (0001ms, 17201ms total)
T0F94 798:277 JLINK_ReadReg(FPS29)  returns 0x00000000 (0000ms, 17201ms total)
T0F94 798:277 JLINK_ReadReg(FPS30)  returns 0x00000000 (0001ms, 17202ms total)
T0F94 798:278 JLINK_ReadReg(FPS31)  returns 0x00000000 (0000ms, 17202ms total)
T02BC 798:279 JLINK_ReadMemEx(0x2000007C, 0x0001 Bytes, ..., AccessWidth = 33554432)Mis-aligned memory read: Address: 0x2000007C, NumBytes: 1, Alignment: 2 (Halfword-aligned)
  ***** Mis-aligned memory read: Address: 0x2000007C, NumBytes: 1, Alignment: 2 (Halfword-aligned) -- CPU_ReadMem(64 bytes @ 0x20000040) -- Updating C cache (64 bytes @ 0x20000040) -- Read from C cache (1 bytes @ 0x2000007C) - Data: 00  returns 0x01 (0005ms, 17207ms total)
T02BC 798:284 JLINK_ReadMemEx(0x20000080, 0x0004 Bytes, ..., AccessWidth = 33554432)Mis-aligned memory read: Address: 0x20000080, NumBytes: 4, Alignment: 2 (Halfword-aligned)
  ***** Mis-aligned memory read: Address: 0x20000080, NumBytes: 4, Alignment: 2 (Halfword-aligned) -- CPU_ReadMem(64 bytes @ 0x20000080) -- Updating C cache (64 bytes @ 0x20000080) -- Read from C cache (4 bytes @ 0x20000080) - Data: 00 00 00 00  returns 0x04 (0003ms, 17210ms total)
T02BC 798:288 JLINK_ReadMemEx(0x2000007C, 0x0001 Bytes, ..., AccessWidth = 33554432)Mis-aligned memory read: Address: 0x2000007C, NumBytes: 1, Alignment: 2 (Halfword-aligned)
  ***** Mis-aligned memory read: Address: 0x2000007C, NumBytes: 1, Alignment: 2 (Halfword-aligned) -- Read from C cache (1 bytes @ 0x2000007C) - Data: 00  returns 0x01 (0001ms, 17211ms total)
T02BC 798:289 JLINK_ReadMemEx(0x20000080, 0x0004 Bytes, ..., AccessWidth = 33554432)Mis-aligned memory read: Address: 0x20000080, NumBytes: 4, Alignment: 2 (Halfword-aligned)
  ***** Mis-aligned memory read: Address: 0x20000080, NumBytes: 4, Alignment: 2 (Halfword-aligned) -- Read from C cache (4 bytes @ 0x20000080) - Data: 00 00 00 00  returns 0x04 (0000ms, 17211ms total)
T02BC 798:290 JLINK_ReadMemU32(0xE0001004, 0x0001 Items, ...) - Data: 33 26 04 0A  returns 0x01 (0000ms, 17212ms total)
T02BC 798:294 JLINK_ReadMemEx(0x2000007C, 0x0001 Bytes, ..., AccessWidth = 33554432)Mis-aligned memory read: Address: 0x2000007C, NumBytes: 1, Alignment: 2 (Halfword-aligned)
  ***** Mis-aligned memory read: Address: 0x2000007C, NumBytes: 1, Alignment: 2 (Halfword-aligned) -- Read from C cache (1 bytes @ 0x2000007C) - Data: 00  returns 0x01 (0002ms, 17214ms total)
T02BC 798:296 JLINK_ReadMemEx(0x2000007C, 0x0001 Bytes, ..., AccessWidth = 33554432)Mis-aligned memory read: Address: 0x2000007C, NumBytes: 1, Alignment: 2 (Halfword-aligned)
  ***** Mis-aligned memory read: Address: 0x2000007C, NumBytes: 1, Alignment: 2 (Halfword-aligned) -- Read from C cache (1 bytes @ 0x2000007C) - Data: 00  returns 0x01 (0000ms, 17214ms total)
T02BC 798:301 JLINK_ReadMemEx(0x08001144, 0x003C Bytes, ..., AccessWidth = 33554432)Mis-aligned memory read: Address: 0x08001144, NumBytes: 60, Alignment: 2 (Halfword-aligned)
  ***** Mis-aligned memory read: Address: 0x08001144, NumBytes: 60, Alignment: 2 (Halfword-aligned) -- CPU_ReadMem(64 bytes @ 0x08001140) -- Updating C cache (64 bytes @ 0x08001140) -- Read from C cache (60 bytes @ 0x08001144) - Data: 10 B5 04 21 18 48 FF F7 45 FA 18 4B 00 21 1A 78 ...  returns 0x3C (0003ms, 17217ms total)
T02BC 798:305 JLINK_ReadMemEx(0x08001144, 0x0002 Bytes, ..., AccessWidth = 33554432)Mis-aligned memory read: Address: 0x08001144, NumBytes: 2, Alignment: 2 (Halfword-aligned)
  ***** Mis-aligned memory read: Address: 0x08001144, NumBytes: 2, Alignment: 2 (Halfword-aligned) -- Read from C cache (2 bytes @ 0x08001144) - Data: 10 B5  returns 0x02 (0000ms, 17217ms total)
T02BC 798:306 JLINK_ReadMemEx(0x08001146, 0x0002 Bytes, ..., AccessWidth = 33554432)Mis-aligned memory read: Address: 0x08001146, NumBytes: 2, Alignment: 2 (Halfword-aligned)
  ***** Mis-aligned memory read: Address: 0x08001146, NumBytes: 2, Alignment: 2 (Halfword-aligned) -- Read from C cache (2 bytes @ 0x08001146) - Data: 04 21  returns 0x02 (0000ms, 17218ms total)
T0F94 803:562 JLINK_ReadMemEx(0x08001144, 0x0002 Bytes, ..., AccessWidth = 33554432)Mis-aligned memory read: Address: 0x08001144, NumBytes: 2, Alignment: 2 (Halfword-aligned)
  ***** Mis-aligned memory read: Address: 0x08001144, NumBytes: 2, Alignment: 2 (Halfword-aligned) -- Read from C cache (2 bytes @ 0x08001144) - Data: 10 B5  returns 0x02 (0020ms, 17238ms total)
T0F94 803:582 JLINK_Step() -- Read from C cache (2 bytes @ 0x08001144) -- CPU_WriteMem(8 bytes @ 0x200008C0) -- Simulated  returns 0x00 (0010ms, 17248ms total)
T0F94 803:592 JLINK_ReadReg(R15 (PC))  returns 0x08001146 (0001ms, 17249ms total)
T0F94 803:594 JLINK_ReadReg(XPSR)  returns 0x01000000 (0001ms, 17251ms total)
T0F94 803:595 JLINK_SetBPEx(Addr = 0x080003DC, Type = 0xFFFFFFF2)  returns 0x00000006 (0001ms, 17252ms total)
T0F94 803:596 JLINK_SetBPEx(Addr = 0x08001144, Type = 0xFFFFFFF2)  returns 0x00000007 (0002ms, 17254ms total)
T0F94 803:598 JLINK_Go() -- CPU_WriteMem(4 bytes @ 0xE0002000) -- CPU_WriteMem(4 bytes @ 0xE0002000) -- CPU_WriteMem(4 bytes @ 0xE0001004) (0013ms, 17267ms total)
T0F94 803:712 JLINK_IsHalted()  returns TRUE (0013ms, 17280ms total)
T0F94 803:725 JLINK_Halt()  returns 0x00 (0001ms, 17268ms total)
T0F94 803:726 JLINK_IsHalted()  returns TRUE (0001ms, 17269ms total)
T0F94 803:727 JLINK_IsHalted()  returns TRUE (0003ms, 17271ms total)
T0F94 803:730 JLINK_IsHalted()  returns TRUE (0000ms, 17268ms total)
T0F94 803:731 JLINK_ReadReg(R15 (PC))  returns 0x080003DC (0001ms, 17269ms total)
T0F94 803:732 JLINK_ReadReg(XPSR)  returns 0x61000000 (0001ms, 17270ms total)
T0F94 803:733 JLINK_ClrBPEx(BPHandle = 0x00000006)  returns 0x00 (0002ms, 17272ms total)
T0F94 803:735 JLINK_ClrBPEx(BPHandle = 0x00000007)  returns 0x00 (0001ms, 17273ms total)
T0F94 803:736 JLINK_ReadMemU32(0xE000ED30, 0x0001 Items, ...) -- CPU_ReadMem(4 bytes @ 0xE000ED30) - Data: 02 00 00 00  returns 0x01 (0005ms, 17278ms total)
T0F94 803:741 JLINK_ReadMemU32(0xE0001028, 0x0001 Items, ...) -- CPU_ReadMem(4 bytes @ 0xE0001028) - Data: 00 00 00 00  returns 0x01 (0004ms, 17282ms total)
T0F94 803:746 JLINK_ReadMemU32(0xE0001038, 0x0001 Items, ...) -- CPU_ReadMem(4 bytes @ 0xE0001038) - Data: 00 02 00 00  returns 0x01 (0005ms, 17288ms total)
T0F94 803:752 JLINK_ReadMemU32(0xE0001048, 0x0001 Items, ...) -- CPU_ReadMem(4 bytes @ 0xE0001048) - Data: 00 00 00 00  returns 0x01 (0005ms, 17294ms total)
T0F94 803:757 JLINK_ReadMemU32(0xE0001058, 0x0001 Items, ...) -- CPU_ReadMem(4 bytes @ 0xE0001058) - Data: 00 00 00 00  returns 0x01 (0005ms, 17299ms total)
T0F94 803:762 JLINK_ReadReg(R0)  returns 0x00000000 (0001ms, 17300ms total)
T0F94 803:763 JLINK_ReadReg(R1)  returns 0xE000ED04 (0001ms, 17301ms total)
T0F94 803:764 JLINK_ReadReg(R2)  returns 0x20000404 (0001ms, 17302ms total)
T0F94 803:766 JLINK_ReadReg(R3)  returns 0x20000674 (0001ms, 17304ms total)
T0F94 803:767 JLINK_ReadReg(R4)  returns 0x00000400 (0002ms, 17306ms total)
T0F94 803:769 JLINK_ReadReg(R5)  returns 0x40021400 (0001ms, 17307ms total)
T0F94 803:770 JLINK_ReadReg(R6)  returns 0x00000001 (0001ms, 17308ms total)
T0F94 803:772 JLINK_ReadReg(R7)  returns 0x00000000 (0001ms, 17310ms total)
T0F94 803:773 JLINK_ReadReg(R8)  returns 0x00000000 (0001ms, 17311ms total)
T0F94 803:774 JLINK_ReadReg(R9)  returns 0x00000000 (0002ms, 17313ms total)
T0F94 803:776 JLINK_ReadReg(R10)  returns 0x00000000 (0001ms, 17314ms total)
T0F94 803:777 JLINK_ReadReg(R11)  returns 0x00000000 (0002ms, 17316ms total)
T0F94 803:779 JLINK_ReadReg(R12)  returns 0x00000000 (0001ms, 17317ms total)
T0F94 803:780 JLINK_ReadReg(R13 (SP))  returns 0x200008C8 (0001ms, 17318ms total)
T0F94 803:781 JLINK_ReadReg(R14)  returns 0x08001F01 (0001ms, 17319ms total)
T0F94 803:783 JLINK_ReadReg(R15 (PC))  returns 0x080003DC (0001ms, 17321ms total)
T0F94 803:784 JLINK_ReadReg(XPSR)  returns 0x61000000 (0001ms, 17322ms total)
T0F94 803:786 JLINK_ReadReg(MSP)  returns 0x20004440 (0001ms, 17324ms total)
T0F94 803:787 JLINK_ReadReg(PSP)  returns 0x200008C8 (0001ms, 17325ms total)
T0F94 803:788 JLINK_ReadReg(CFBP)  returns 0x02000000 (0001ms, 17326ms total)
T0F94 803:790 JLINK_ReadReg(FPSCR)  returns 0x00000000 (0014ms, 17341ms total)
T0F94 803:804 JLINK_ReadReg(FPS0)  returns 0x00000000 (0001ms, 17342ms total)
T0F94 803:805 JLINK_ReadReg(FPS1)  returns 0x00000000 (0001ms, 17343ms total)
T0F94 803:807 JLINK_ReadReg(FPS2)  returns 0x00000000 (0001ms, 17345ms total)
T0F94 803:808 JLINK_ReadReg(FPS3)  returns 0x00000000 (0003ms, 17348ms total)
T0F94 803:811 JLINK_ReadReg(FPS4)  returns 0x00000000 (0001ms, 17349ms total)
T0F94 803:812 JLINK_ReadReg(FPS5)  returns 0x00000000 (0001ms, 17350ms total)
T0F94 803:814 JLINK_ReadReg(FPS6)  returns 0x00000000 (0001ms, 17352ms total)
T0F94 803:815 JLINK_ReadReg(FPS7)  returns 0x00000000 (0001ms, 17353ms total)
T0F94 803:817 JLINK_ReadReg(FPS8)  returns 0x00000000 (0001ms, 17355ms total)
T0F94 803:818 JLINK_ReadReg(FPS9)  returns 0x00000000 (0002ms, 17357ms total)
T0F94 803:820 JLINK_ReadReg(FPS10)  returns 0x00000000 (0001ms, 17358ms total)
T0F94 803:822 JLINK_ReadReg(FPS11)  returns 0x00000000 (0001ms, 17360ms total)
T0F94 803:823 JLINK_ReadReg(FPS12)  returns 0x00000000 (0001ms, 17361ms total)
T0F94 803:825 JLINK_ReadReg(FPS13)  returns 0x00000000 (0001ms, 17363ms total)
T0F94 803:826 JLINK_ReadReg(FPS14)  returns 0x00000000 (0001ms, 17364ms total)
T0F94 803:828 JLINK_ReadReg(FPS15)  returns 0x00000000 (0001ms, 17366ms total)
T0F94 803:829 JLINK_ReadReg(FPS16)  returns 0x00000000 (0001ms, 17367ms total)
T0F94 803:831 JLINK_ReadReg(FPS17)  returns 0x00000000 (0001ms, 17369ms total)
T0F94 803:832 JLINK_ReadReg(FPS18)  returns 0x00000000 (0001ms, 17370ms total)
T0F94 803:833 JLINK_ReadReg(FPS19)  returns 0x00000000 (0002ms, 17372ms total)
T0F94 803:835 JLINK_ReadReg(FPS20)  returns 0x00000000 (0001ms, 17373ms total)
T0F94 803:837 JLINK_ReadReg(FPS21)  returns 0x00000000 (0001ms, 17375ms total)
T0F94 803:838 JLINK_ReadReg(FPS22)  returns 0x00000000 (0001ms, 17376ms total)
T0F94 803:840 JLINK_ReadReg(FPS23)  returns 0x00000000 (0001ms, 17378ms total)
T0F94 803:841 JLINK_ReadReg(FPS24)  returns 0x00000000 (0002ms, 17380ms total)
T0F94 803:843 JLINK_ReadReg(FPS25)  returns 0x00000000 (0001ms, 17381ms total)
T0F94 803:845 JLINK_ReadReg(FPS26)  returns 0x00000000 (0001ms, 17383ms total)
T0F94 803:846 JLINK_ReadReg(FPS27)  returns 0x00000000 (0002ms, 17385ms total)
T0F94 803:848 JLINK_ReadReg(FPS28)  returns 0x00000000 (0001ms, 17386ms total)
T0F94 803:849 JLINK_ReadReg(FPS29)  returns 0x00000000 (0002ms, 17388ms total)
T0F94 803:851 JLINK_ReadReg(FPS30)  returns 0x00000000 (0000ms, 17388ms total)
T0F94 803:852 JLINK_ReadReg(FPS31)  returns 0x00000000 (0002ms, 17391ms total)
T02BC 803:858 JLINK_ReadMemU32(0xE0001004, 0x0001 Items, ...) -- CPU_ReadMem(4 bytes @ 0xE0001004) - Data: 90 71 04 0B  returns 0x01 (0014ms, 17405ms total)
T02BC 803:875 JLINK_ReadMemEx(0x2000007C, 0x0001 Bytes, ..., AccessWidth = 33554432)Mis-aligned memory read: Address: 0x2000007C, NumBytes: 1, Alignment: 2 (Halfword-aligned)
  ***** Mis-aligned memory read: Address: 0x2000007C, NumBytes: 1, Alignment: 2 (Halfword-aligned) -- CPU_ReadMem(64 bytes @ 0x20000040) -- Updating C cache (64 bytes @ 0x20000040) -- Read from C cache (1 bytes @ 0x2000007C) - Data: 00  returns 0x01 (0007ms, 17413ms total)
T02BC 803:888 JLINK_ReadMemEx(0x080003DC, 0x003C Bytes, ..., AccessWidth = 33554432)Mis-aligned memory read: Address: 0x080003DC, NumBytes: 60, Alignment: 2 (Halfword-aligned)
  ***** Mis-aligned memory read: Address: 0x080003DC, NumBytes: 60, Alignment: 2 (Halfword-aligned) -- CPU_ReadMem(128 bytes @ 0x080003C0) -- Updating C cache (128 bytes @ 0x080003C0) -- Read from C cache (60 bytes @ 0x080003DC) - Data: 00 F0 B2 FE 02 28 0A D0 03 28 0A D0 01 22 21 46 ...  returns 0x3C (0007ms, 17421ms total)
T02BC 803:895 JLINK_ReadMemEx(0x080003DC, 0x0002 Bytes, ..., AccessWidth = 33554432)Mis-aligned memory read: Address: 0x080003DC, NumBytes: 2, Alignment: 2 (Halfword-aligned)
  ***** Mis-aligned memory read: Address: 0x080003DC, NumBytes: 2, Alignment: 2 (Halfword-aligned) -- Read from C cache (2 bytes @ 0x080003DC) - Data: 00 F0  returns 0x02 (0003ms, 17424ms total)
T02BC 803:899 JLINK_ReadMemEx(0x080003DE, 0x0002 Bytes, ..., AccessWidth = 33554432)Mis-aligned memory read: Address: 0x080003DE, NumBytes: 2, Alignment: 2 (Halfword-aligned)
  ***** Mis-aligned memory read: Address: 0x080003DE, NumBytes: 2, Alignment: 2 (Halfword-aligned) -- Read from C cache (2 bytes @ 0x080003DE) - Data: B2 FE  returns 0x02 (0002ms, 17427ms total)
T0F94 804:626 JLINK_ReadMemEx(0x080003DC, 0x0002 Bytes, ..., AccessWidth = 33554432)Mis-aligned memory read: Address: 0x080003DC, NumBytes: 2, Alignment: 2 (Halfword-aligned)
  ***** Mis-aligned memory read: Address: 0x080003DC, NumBytes: 2, Alignment: 2 (Halfword-aligned) -- Read from C cache (2 bytes @ 0x080003DC) - Data: 00 F0  returns 0x02 (0007ms, 17435ms total)
T0F94 804:634 JLINK_Step() -- Read from C cache (2 bytes @ 0x080003DC) -- Read from C cache (2 bytes @ 0x080003DE) -- Simulated  returns 0x00 (0006ms, 17442ms total)
T0F94 804:640 JLINK_ReadReg(R15 (PC))  returns 0x08001144 (0002ms, 17444ms total)
T0F94 804:642 JLINK_ReadReg(XPSR)  returns 0x61000000 (0001ms, 17445ms total)
T0F94 804:643 JLINK_ReadReg(R0)  returns 0x00000000 (0001ms, 17446ms total)
T0F94 804:645 JLINK_ReadReg(R1)  returns 0xE000ED04 (0001ms, 17448ms total)
T0F94 804:647 JLINK_ReadReg(R2)  returns 0x20000404 (0001ms, 17450ms total)
T0F94 804:648 JLINK_ReadReg(R3)  returns 0x20000674 (0001ms, 17451ms total)
T0F94 804:650 JLINK_ReadReg(R4)  returns 0x00000400 (0002ms, 17454ms total)
T0F94 804:652 JLINK_ReadReg(R5)  returns 0x40021400 (0001ms, 17455ms total)
T0F94 804:653 JLINK_ReadReg(R6)  returns 0x00000001 (0002ms, 17457ms total)
T0F94 804:655 JLINK_ReadReg(R7)  returns 0x00000000 (0001ms, 17458ms total)
T0F94 804:657 JLINK_ReadReg(R8)  returns 0x00000000 (0001ms, 17460ms total)
